T038C 000:008.134   SEGGER J-Link V7.92d Log File
T038C 000:008.239   DLL Compiled: Sep  8 2023 09:49:39
T038C 000:008.246   Logging started @ 2023-09-10 16:15
T038C 000:008.252   Process: C:\Keil_v5\UV4\UV4.exe
T038C 000:008.262 - 8.260ms
T038C 000:008.273 JLINK_SetWarnOutHandler(...)
T038C 000:008.279 - 0.007ms
T038C 000:008.286 JLINK_OpenEx(...)
T038C 000:009.529   Firmware: J-Link OB-SAM3U128 V3 compiled Feb  2 2021 16:48:08
T038C 000:009.717   Firmware: J-Link OB-SAM3U128 V3 compiled Feb  2 2021 16:48:08
T038C 000:027.726   Hardware: V3.00
T038C 000:027.750   S/N: 483041443
T038C 000:027.759   OEM: SEGGER
T038C 000:027.770   Feature(s): None
T038C 000:028.218   Bootloader: (Could not read)
T038C 000:028.689   TELNET listener socket opened on port 19021
T038C 000:028.826   WEBSRV WEBSRV_Init(): Starting webserver thread(s)
T038C 000:029.025   WEBSRV Webserver running on local port 19080
T038C 000:029.128   Looking for J-Link GUI Server exe at: C:\Keil_v5\ARM\Segger\JLinkGUIServer.exe
T038C 000:029.225   Looking for J-Link GUI Server exe at: C:\Program Files\SEGGER\JLink\JLinkGUIServer.exe
T038C 000:029.266   Forking J-Link GUI Server: C:\Program Files\SEGGER\JLink\JLinkGUIServer.exe
T038C 000:031.646   J-Link GUI Server info: "J-Link GUI server V7.92d "
T038C 000:031.946 - 23.651ms returns "O.K."
T038C 000:031.970 JLINK_GetEmuCaps()
T038C 000:031.981 - 0.009ms returns 0xB9FE5BBF
T038C 000:031.991 JLINK_TIF_GetAvailable(...)
T038C 000:032.112 - 0.120ms
T038C 000:032.128 JLINK_SetErrorOutHandler(...)
T038C 000:032.134 - 0.006ms
T038C 000:032.156 JLINK_ExecCommand("ProjectFile = "C:\Users\retin\Desktop\My_Git\RSL10\JLinkSettings.ini"", ...). 
T038C 000:042.014   Ref file found at: C:\Keil_v5\ARM\Segger\JLinkDevices.ref
T038C 000:042.125   REF file references invalid XML file: C:\Program Files\SEGGER\JLink\JLinkDevices.xml
T038C 000:042.355 - 10.200ms returns 0x00
T038C 000:042.391 JLINK_ExecCommand("Device = RSL10", ...). 
T038C 000:042.671   Device "RSL10" selected.
T038C 000:042.940 - 0.540ms returns 0x00
T038C 000:042.951 JLINK_ExecCommand("DisableConnectionTimeout", ...). 
T038C 000:042.961 - 0.001ms returns 0x01
T038C 000:042.968 JLINK_GetHardwareVersion()
T038C 000:042.977 - 0.006ms returns 30000
T038C 000:042.986 JLINK_GetDLLVersion()
T038C 000:042.992 - 0.006ms returns 79204
T038C 000:042.998 JLINK_GetOEMString(...)
T038C 000:043.005 JLINK_GetFirmwareString(...)
T038C 000:043.011 - 0.006ms
T038C 000:043.031 JLINK_GetDLLVersion()
T038C 000:043.037 - 0.006ms returns 79204
T038C 000:043.044 JLINK_GetCompileDateTime()
T038C 000:043.050 - 0.005ms
T038C 000:043.061 JLINK_GetFirmwareString(...)
T038C 000:043.067 - 0.006ms
T038C 000:043.077 JLINK_GetHardwareVersion()
T038C 000:043.083 - 0.006ms returns 30000
T038C 000:043.092 JLINK_GetSN()
T038C 000:043.099 - 0.006ms returns 483041443
T038C 000:043.108 JLINK_GetOEMString(...)
T038C 000:043.118 JLINK_TIF_Select(JLINKARM_TIF_SWD)
T038C 000:043.675 - 0.557ms returns 0x00
T038C 000:043.692 JLINK_HasError()
T038C 000:043.709 JLINK_SetSpeed(5000)
T038C 000:043.786 - 0.077ms
T038C 000:043.801 JLINK_GetId()
T038C 000:044.436   Found SW-DP with ID 0x2BA01477
T038C 000:046.345   DPIDR: 0x2BA01477
T038C 000:046.362   CoreSight SoC-400 or earlier
T038C 000:046.375   Scanning AP map to find all available APs
T038C 000:046.827   AP[1]: Stopped AP scan as end of AP map has been reached
T038C 000:046.847   AP[0]: AHB-AP (IDR: 0x24770011)
T038C 000:046.859   Iterating through AP map to find AHB-AP to use
T038C 000:047.413   AP[0]: Core found
T038C 000:047.430   AP[0]: AHB-AP ROM base: 0xE00FF000
T038C 000:047.709   CPUID register: 0x412FC231. Implementer code: 0x41 (ARM)
T038C 000:047.727   Found Cortex-M3 r2p1, Little endian.
T038C 000:047.926   -- Max. mem block: 0x00005168
T038C 000:048.218   CPU_ReadMem(4 bytes @ 0xE000EDF0)
T038C 000:048.479   CPU_WriteMem(4 bytes @ 0xE000EDF0)
T038C 000:048.746   CPU_ReadMem(4 bytes @ 0xE0002000)
T038C 000:049.006   FPUnit: 2 code (BP) slots and 0 literal slots
T038C 000:049.020   CPU_ReadMem(4 bytes @ 0xE000EDFC)
T038C 000:049.320   CPU_WriteMem(4 bytes @ 0xE000EDFC)
T038C 000:049.588   CPU_ReadMem(4 bytes @ 0xE0001000)
T038C 000:049.850   CPU_WriteMem(4 bytes @ 0xE0001000)
T038C 000:050.119   CPU_ReadMem(4 bytes @ 0xE000ED88)
T038C 000:050.374   CPU_WriteMem(4 bytes @ 0xE000ED88)
T038C 000:050.657   CPU_ReadMem(4 bytes @ 0xE000ED88)
T038C 000:050.912   CPU_WriteMem(4 bytes @ 0xE000ED88)
T038C 000:051.185   CoreSight components:
T038C 000:051.201   ROMTbl[0] @ E00FF000
T038C 000:051.211   CPU_ReadMem(64 bytes @ 0xE00FF000)
T038C 000:051.781   CPU_ReadMem(32 bytes @ 0xE000EFE0)
T038C 000:052.195   [0][0]: E000E000 CID B105E00D PID 000BB000 SCS
T038C 000:052.209   CPU_ReadMem(32 bytes @ 0xE0001FE0)
T038C 000:052.622   [0][1]: E0001000 CID B105E00D PID 003BB002 DWT
T038C 000:052.636   CPU_ReadMem(32 bytes @ 0xE0002FE0)
T038C 000:053.048   [0][2]: E0002000 CID B105E00D PID 002BB003 FPB
T038C 000:053.210 - 9.408ms returns 0x2BA01477
T038C 000:053.223 JLINK_GetDLLVersion()
T038C 000:053.229 - 0.006ms returns 79204
T038C 000:053.236 JLINK_CORE_GetFound()
T038C 000:053.242 - 0.006ms returns 0x30000FF
T038C 000:053.252 JLINK_GetDebugInfo(0x100 = JLINKARM_ROM_TABLE_ADDR_INDEX)
T038C 000:053.259   Value=0xE00FF000
T038C 000:053.268 - 0.015ms returns 0
T038C 000:053.282 JLINK_GetDebugInfo(0x100 = JLINKARM_ROM_TABLE_ADDR_INDEX)
T038C 000:053.288   Value=0xE00FF000
T038C 000:053.297 - 0.015ms returns 0
T038C 000:053.304 JLINK_GetDebugInfo(0x101 = JLINKARM_DEBUG_INFO_ETM_ADDR_INDEX)
T038C 000:053.310   Value=0x00000000
T038C 000:053.319 - 0.014ms returns 0
T038C 000:053.326 JLINK_ReadMemEx(0xE0041FF0, 0x10 Bytes, Flags = 0x02000004)
T038C 000:053.343   CPU_ReadMem(16 bytes @ 0xE0041FF0)
T038C 000:053.668   Data:  00 00 00 00 00 00 00 00 00 00 00 00 00 00 00 00
T038C 000:053.682 - 0.355ms returns 16 (0x10)
T038C 000:053.690 JLINK_GetDebugInfo(0x102 = JLINKARM_DEBUG_INFO_MTB_ADDR_INDEX)
T038C 000:053.696   Value=0x00000000
T038C 000:053.705 - 0.015ms returns 0
T038C 000:053.712 JLINK_GetDebugInfo(0x103 = JLINKARM_DEBUG_INFO_TPIU_ADDR_INDEX)
T038C 000:053.718   Value=0x00000000
T038C 000:053.727 - 0.014ms returns 0
T038C 000:053.733 JLINK_ReadMemEx(0xE0040FF0, 0x10 Bytes, Flags = 0x02000004)
T038C 000:053.744   CPU_ReadMem(16 bytes @ 0xE0040FF0)
T038C 000:054.086   Data:  00 00 00 00 00 00 00 00 00 00 00 00 00 00 00 00
T038C 000:054.100 - 0.366ms returns 16 (0x10)
T038C 000:054.108 JLINK_GetDebugInfo(0x104 = JLINKARM_DEBUG_INFO_ITM_ADDR_INDEX)
T038C 000:054.114   Value=0xE0000000
T038C 000:054.123 - 0.015ms returns 0
T038C 000:054.130 JLINK_GetDebugInfo(0x105 = JLINKARM_DEBUG_INFO_DWT_ADDR_INDEX)
T038C 000:054.136   Value=0xE0001000
T038C 000:054.145 - 0.014ms returns 0
T038C 000:054.151 JLINK_GetDebugInfo(0x106 = JLINKARM_DEBUG_INFO_FPB_ADDR_INDEX)
T038C 000:054.157   Value=0xE0002000
T038C 000:054.166 - 0.014ms returns 0
T038C 000:054.173 JLINK_GetDebugInfo(0x107 = JLINKARM_DEBUG_INFO_NVIC_ADDR_INDEX)
T038C 000:054.178   Value=0xE000E000
T038C 000:054.187 - 0.014ms returns 0
T038C 000:054.194 JLINK_GetDebugInfo(0x10C = JLINKARM_DEBUG_INFO_DBG_ADDR_INDEX)
T038C 000:054.200   Value=0xE000EDF0
T038C 000:054.208 - 0.014ms returns 0
T038C 000:054.218 JLINK_GetDebugInfo(0x01 = Unknown)
T038C 000:054.224   Value=0x00000000
T038C 000:054.233 - 0.017ms returns 0
T038C 000:054.240 JLINK_ReadMemU32(0xE000ED00, 0x1 Items)
T038C 000:054.250   CPU_ReadMem(4 bytes @ 0xE000ED00)
T038C 000:054.537   Data:  31 C2 2F 41
T038C 000:054.551   Debug reg: CPUID
T038C 000:054.560 - 0.320ms returns 1 (0x1)
T038C 000:054.568 JLINK_GetDebugInfo(0x10F = JLINKARM_DEBUG_INFO_HAS_CORTEX_M_SECURITY_EXT_INDEX)
T038C 000:054.575   Value=0x00000000
T038C 000:054.585 - 0.017ms returns 0
T038C 000:054.593 JLINK_HasError()
T038C 000:054.601 JLINK_SetResetType(JLINKARM_CM3_RESET_TYPE_NORMAL)
T038C 000:054.609 - 0.007ms returns JLINKARM_CM3_RESET_TYPE_NORMAL
T038C 000:054.616 JLINK_Reset()
T038C 000:054.635   ResetTarget() start
T038C 000:054.645    J-Link Script File: Executing ResetTarget()
T038C 000:054.661   Executing RSL10 reset type: 0x00000000
T038C 000:054.677   CPU_ReadMem(4 bytes @ 0x00080000)
T038C 000:054.934   CPU_ReadMem(4 bytes @ 0x00100004)
T038C 000:055.197   CPU_ReadMem(4 bytes @ 0xE0002000)
T038C 000:055.453   CPU_ReadMem(4 bytes @ 0xE0002008)
T038C 000:055.710   CPU is running
T038C 000:055.724   CPU_WriteMem(4 bytes @ 0xE0002000)
T038C 000:055.994   CPU is running
T038C 000:056.008   CPU_WriteMem(4 bytes @ 0xE0002008)
T038C 000:056.282   CPU is running
T038C 000:056.296   CPU_WriteMem(4 bytes @ 0xE000ED0C)
T038C 000:160.807   CPU_WriteMem(4 bytes @ 0xE0002008)
T038C 000:161.177   CPU_WriteMem(4 bytes @ 0xE0002000)
T038C 000:161.559   ResetTarget() end - Took 106ms
T038C 000:164.528   CPU_WriteMem(4 bytes @ 0xE0002000)
T038C 000:164.853   CPU_ReadMem(4 bytes @ 0xE000EDFC)
T038C 000:165.162   CPU_ReadMem(4 bytes @ 0xE0001000)
T038C 000:165.483 - 110.866ms
T038C 000:165.509 JLINK_HasError()
T038C 000:165.521 JLINK_ReadReg(R15 (PC))
T038C 000:165.531 - 0.013ms returns 0x00100164
T038C 000:165.539 JLINK_ReadReg(XPSR)
T038C 000:165.545 - 0.006ms returns 0x61000000
T038C 000:165.614 JLINK_Halt()
T038C 000:165.631 - 0.016ms returns 0x00
T038C 000:165.639 JLINK_ReadMemU32(0xE000EDF0, 0x1 Items)
T038C 000:165.652   CPU_ReadMem(4 bytes @ 0xE000EDF0)
T038C 000:165.958   Data:  03 00 03 00
T038C 000:165.989   Debug reg: DHCSR
T038C 000:166.008 - 0.368ms returns 1 (0x1)
T038C 000:166.032 JLINK_WriteU32_64(0xE000EDF0, 0xA05F0003)
T038C 000:166.045   Debug reg: DHCSR
T038C 000:166.350   CPU_WriteMem(4 bytes @ 0xE000EDF0)
T038C 000:166.681 - 0.649ms returns 0 (0x00000000)
T038C 000:166.711 JLINK_WriteU32_64(0xE000EDFC, 0x01000000)
T038C 000:166.725   Debug reg: DEMCR
T038C 000:166.754   CPU_WriteMem(4 bytes @ 0xE000EDFC)
T038C 000:167.085 - 0.374ms returns 0 (0x00000000)
T038C 000:167.132 JLINK_GetHWStatus(...)
T038C 000:167.247 - 0.119ms returns 0
T038C 000:167.278 JLINK_GetNumBPUnits(Type = 0xFFFFFF00)
T038C 000:167.285 - 0.007ms returns 0x02
T038C 000:167.292 JLINK_GetNumBPUnits(Type = 0xF0)
T038C 000:167.298 - 0.006ms returns 0x2000
T038C 000:167.305 JLINK_GetNumWPUnits()
T038C 000:167.311 - 0.006ms returns 1
T038C 000:167.325 JLINK_GetSpeed()
T038C 000:167.331 - 0.006ms returns 2667
T038C 000:167.343 JLINK_ReadMemU32(0xE000E004, 0x1 Items)
T038C 000:167.354   CPU_ReadMem(4 bytes @ 0xE000E004)
T038C 000:167.649   Data:  02 00 00 00
T038C 000:167.664 - 0.321ms returns 1 (0x1)
T038C 000:167.672 JLINK_ReadMemU32(0xE000E004, 0x1 Items)
T038C 000:167.682   CPU_ReadMem(4 bytes @ 0xE000E004)
T038C 000:167.997   Data:  02 00 00 00
T038C 000:168.012 - 0.340ms returns 1 (0x1)
T038C 000:168.021 JLINK_WriteMemEx(0xE0001000, 0x0000001C Bytes, Flags = 0x02000004)
T038C 000:168.028   Data:  01 00 00 00 00 00 00 00 00 00 00 00 00 00 00 00 ...
T038C 000:168.042   CPU_WriteMem(28 bytes @ 0xE0001000)
T038C 000:168.512 - 0.490ms returns 0x1C
T038C 000:168.534 JLINK_HasError()
T038C 000:168.542 JLINK_ReadReg(R15 (PC))
T038C 000:168.551 - 0.008ms returns 0x00100164
T038C 000:168.558 JLINK_ReadReg(XPSR)
T038C 000:168.565 - 0.006ms returns 0x61000000
T038C 000:172.382 JLINK_ReadMemEx(0xE0001004, 0x4 Bytes, Flags = 0x02000000)
T038C 000:172.411   Data:  00 00 00 00
T038C 000:172.421   Debug reg: DWT_CYCCNT
T038C 000:172.431 - 0.050ms returns 4 (0x4)
T038C 000:182.273 JLINK_WriteMemEx(0x00100000, 0x00000750 Bytes, Flags = 0x02000000)
T038C 000:182.302   Data:  00 60 00 20 65 01 10 00 75 01 10 00 77 01 10 00 ...
T038C 000:182.486   completely In flash
T038C 000:182.498 - 0.226ms returns 0x750
T038C 000:240.541 JLINK_HasError()
T038C 000:240.574 JLINK_SetResetType(JLINKARM_CM3_RESET_TYPE_NORMAL)
T038C 000:240.582 - 0.007ms returns JLINKARM_CM3_RESET_TYPE_NORMAL
T038C 000:240.589 JLINK_Reset()
T038C 000:240.733   CPU_ReadMem(4 bytes @ 0xE000ED90)
T038C 000:241.024    -- --------------------------------------
T038C 000:241.043    -- Flash bank @ 0x00100000: Default: L2 verify disabled because algorithm performs L1 verify
T038C 000:241.053    -- Start of determining dirty areas in flash cache
T038C 000:241.070    -- Filling invalid ranges in sector buffer (flash cache) for sector @ 0x00100000 if necessary
T038C 000:241.128    -- End of determining dirty areas
T038C 000:241.138    -- Start of preparing flash programming
T038C 000:241.147    -- Calculating RAM usage
T038C 000:241.235    -- RAM usage = 2852 Bytes
T038C 000:241.244    -- Preserving CPU registers
T038C 000:241.267    -- Preparing target
T038C 000:241.277    -- Preserving target RAM temporarily used for programming
T038C 000:256.643    -- Downloading RAMCode
T038C 000:272.779    -- Preparing RAMCode
T038C 000:278.028    -- End of preparing flash programming
T038C 000:280.436    -- CPU speed could not be measured.
T038C 000:280.458    -- Start of comparing flash
T038C 000:280.468    -- CRC check was estimated as fastest method
T038C 000:294.699    -- Comparing range 0x100000 - 0x1007FF (1 Sector, 2 KB), using multi-block CRC calculation
T038C 000:298.943    -- CRC does not match for sector 0
T038C 000:298.979    -- End of comparing flash
T038C 000:298.990    -- Start of erasing sectors
T038C 000:299.001    -- Erasing range 0x00100000 - 0x001007FF (  1 Sector, 2 KB)
T038C 000:303.081    -- End of erasing sectors
T038C 000:303.112    -- Start of flash programming
T038C 000:303.123    -- Programming range 0x00100000 - 0x001007FF (  1 Sector, 2 KB)
T038C 000:322.885    -- End of flash programming
T038C 000:322.908    -- 0x100000 - 0x1007FF (  1 Sector, 2 KB)
T038C 000:322.919    -- Start of restoring
T038C 000:322.928    -- Restoring RAMCode
T038C 000:333.415    -- Restoring target memory
T038C 000:348.672    -- Restore target
T038C 000:348.733    -- Restoring CPU registers
T038C 000:348.788    -- End of restoring
T038C 000:348.856    -- Bank 0 @ 0x00100000: 1 range affected (2048 bytes)
T038C 000:348.894    -- Total: 0.107s (Prepare: 0.039s, Compare: 0.018s, Erase: 0.004s, Program & Verify: 0.026s, Restore: 0.019s)
T038C 000:348.930    -- Program & Verify speed: 76 KB/s
T038C 000:355.481   ResetTarget() start
T038C 000:355.511    J-Link Script File: Executing ResetTarget()
T038C 000:355.524   Executing RSL10 reset type: 0x00000000
T038C 000:355.542   CPU_ReadMem(64 bytes @ 0x00080000)
T038C 000:356.142    -- Updating C cache (64 bytes @ 0x00080000)
T038C 000:356.164    -- Read from C cache (4 bytes @ 0x00080000)
T038C 000:356.177    -- Read from flash cache (4 bytes @ 0x00100004)
T038C 000:356.189   CPU_ReadMem(4 bytes @ 0xE0002000)
T038C 000:356.460   CPU_ReadMem(4 bytes @ 0xE0002008)
T038C 000:356.759   CPU_WriteMem(4 bytes @ 0xE0002000)
T038C 000:357.078   CPU_WriteMem(4 bytes @ 0xE0002008)
T038C 000:357.658   CPU_WriteMem(4 bytes @ 0xE000ED0C)
T038C 000:460.491   CPU_WriteMem(4 bytes @ 0xE0002008)
T038C 000:461.008   CPU_WriteMem(4 bytes @ 0xE0002000)
T038C 000:461.501   ResetTarget() end - Took 105ms
T038C 000:464.718   CPU_WriteMem(4 bytes @ 0xE0002000)
T038C 000:465.053   CPU_ReadMem(4 bytes @ 0xE000EDFC)
T038C 000:465.347   CPU_ReadMem(4 bytes @ 0xE0001000)
T038C 000:465.665 - 225.074ms
T038C 000:465.728 JLINK_HasError()
T038C 000:465.744 JLINK_ReadReg(R15 (PC))
T038C 000:465.754 - 0.010ms returns 0x00100164
T038C 000:465.761 JLINK_ReadReg(XPSR)
T038C 000:465.768 - 0.006ms returns 0x61000000
T038C 000:466.098 JLINK_ReadMemEx(0x00100162, 0x2 Bytes, Flags = 0x02000000)
T038C 000:466.110    -- Read from flash cache (2 bytes @ 0x00100162)
T038C 000:466.119   Data:  10 00
T038C 000:466.129 - 0.031ms returns 2 (0x2)
T038C 000:466.174 JLINK_ReadMemEx(0x00100164, 0x3C Bytes, Flags = 0x02000000)
T038C 000:466.181    -- Read from flash cache (60 bytes @ 0x00100164)
T038C 000:466.191   Data:  68 46 6F F3 82 00 85 46 06 48 80 47 06 48 00 47 ...
T038C 000:466.200 - 0.026ms returns 60 (0x3C)
T038C 000:466.207 JLINK_ReadMemEx(0x00100164, 0x2 Bytes, Flags = 0x02000000)
T038C 000:466.213    -- Read from flash cache (2 bytes @ 0x00100164)
T038C 000:466.222   Data:  68 46
T038C 000:466.231 - 0.024ms returns 2 (0x2)
T038C 000:466.244 JLINK_ReadMemEx(0x00100164, 0x3C Bytes, Flags = 0x02000000)
T038C 000:466.300    -- Read from flash cache (60 bytes @ 0x00100164)
T038C 000:466.311   Data:  68 46 6F F3 82 00 85 46 06 48 80 47 06 48 00 47 ...
T038C 000:466.320 - 0.075ms returns 60 (0x3C)
T038C 000:466.327 JLINK_ReadMemEx(0x00100164, 0x2 Bytes, Flags = 0x02000000)
T038C 000:466.333    -- Read from flash cache (2 bytes @ 0x00100164)
T038C 000:466.342   Data:  68 46
T038C 000:466.351 - 0.024ms returns 2 (0x2)
T038C 000:466.358 JLINK_ReadMemEx(0x00100166, 0x2 Bytes, Flags = 0x02000000)
T038C 000:466.364    -- Read from flash cache (2 bytes @ 0x00100166)
T038C 000:466.373   Data:  6F F3
T038C 000:466.381 - 0.023ms returns 2 (0x2)
T038C 000:466.392 JLINK_ReadMemEx(0x00100166, 0x2 Bytes, Flags = 0x02000000)
T038C 000:466.398    -- Read from flash cache (2 bytes @ 0x00100166)
T038C 000:466.407   Data:  6F F3
T038C 000:466.422 - 0.030ms returns 2 (0x2)
T038C 000:466.441 JLINK_ReadMemEx(0x00100168, 0x3C Bytes, Flags = 0x02000000)
T038C 000:466.460    -- Read from flash cache (60 bytes @ 0x00100168)
T038C 000:466.485   Data:  82 00 85 46 06 48 80 47 06 48 00 47 FE E7 FE E7 ...
T038C 000:466.508 - 0.067ms returns 60 (0x3C)
T038C 000:466.526 JLINK_ReadMemEx(0x00100168, 0x2 Bytes, Flags = 0x02000000)
T038C 000:466.543    -- Read from flash cache (2 bytes @ 0x00100168)
T038C 000:466.566   Data:  82 00
T038C 000:466.590 - 0.063ms returns 2 (0x2)
T038C 000:466.616 JLINK_ReadMemEx(0x0010016A, 0x2 Bytes, Flags = 0x02000000)
T038C 000:466.633    -- Read from flash cache (2 bytes @ 0x0010016A)
T038C 000:466.663   Data:  85 46
T038C 000:466.687 - 0.070ms returns 2 (0x2)
T038C 000:466.705 JLINK_ReadMemEx(0x0010016C, 0x3C Bytes, Flags = 0x02000000)
T038C 000:466.722    -- Read from flash cache (60 bytes @ 0x0010016C)
T038C 000:466.747   Data:  06 48 80 47 06 48 00 47 FE E7 FE E7 FE E7 FE E7 ...
T038C 000:466.770 - 0.064ms returns 60 (0x3C)
T038C 000:466.788 JLINK_ReadMemEx(0x0010016C, 0x2 Bytes, Flags = 0x02000000)
T038C 000:466.804    -- Read from flash cache (2 bytes @ 0x0010016C)
T038C 000:466.828   Data:  06 48
T038C 000:466.851 - 0.063ms returns 2 (0x2)
T038C 000:572.350 JLINK_ReadMemEx(0x40010000, 0xC8 Bytes, Flags = 0x02000004)
T038C 000:572.385   CPU_ReadMem(200 bytes @ 0x40010000)
T038C 000:573.056   failed
T038C 000:573.076 - 0.726ms returns -1 (0xFFFFFFFF)
T038C 000:573.093 JLINK_ReadMemEx(0x40010000, 0x4 Bytes, Flags = 0x02000004)
T038C 000:573.112   CPU_ReadMem(4 bytes @ 0x40010000)
T038C 000:573.652   failed
T038C 000:573.668 - 0.574ms returns -1 (0xFFFFFFFF)
T038C 000:573.678 JLINK_ReadMemEx(0x40010004, 0x4 Bytes, Flags = 0x02000004)
T038C 000:573.690   CPU_ReadMem(4 bytes @ 0x40010004)
T038C 000:574.256   failed
T038C 000:574.271 - 0.592ms returns -1 (0xFFFFFFFF)
T038C 000:574.281 JLINK_ReadMemEx(0x40010008, 0x4 Bytes, Flags = 0x02000004)
T038C 000:574.292   CPU_ReadMem(4 bytes @ 0x40010008)
T038C 000:574.631   failed
T038C 000:574.645 - 0.363ms returns -1 (0xFFFFFFFF)
T038C 000:574.654 JLINK_ReadMemEx(0x4001000C, 0x4 Bytes, Flags = 0x02000004)
T038C 000:574.665   CPU_ReadMem(4 bytes @ 0x4001000C)
T038C 000:574.999   failed
T038C 000:575.014 - 0.359ms returns -1 (0xFFFFFFFF)
T038C 000:575.024 JLINK_ReadMemEx(0x40010010, 0x4 Bytes, Flags = 0x02000004)
T038C 000:575.036   CPU_ReadMem(4 bytes @ 0x40010010)
T038C 000:575.367   failed
T038C 000:575.381 - 0.357ms returns -1 (0xFFFFFFFF)
T038C 000:575.391 JLINK_ReadMemEx(0x40010014, 0x4 Bytes, Flags = 0x02000004)
T038C 000:575.402   CPU_ReadMem(4 bytes @ 0x40010014)
T038C 000:575.731   failed
T038C 000:575.748 - 0.357ms returns -1 (0xFFFFFFFF)
T038C 000:575.760 JLINK_ReadMemEx(0x40010018, 0x4 Bytes, Flags = 0x02000004)
T038C 000:575.773   CPU_ReadMem(4 bytes @ 0x40010018)
T038C 000:576.105   failed
T038C 000:576.120 - 0.360ms returns -1 (0xFFFFFFFF)
T038C 000:576.130 JLINK_ReadMemEx(0x4001001C, 0x4 Bytes, Flags = 0x02000004)
T038C 000:576.141   CPU_ReadMem(4 bytes @ 0x4001001C)
T038C 000:576.473   failed
T038C 000:576.487 - 0.357ms returns -1 (0xFFFFFFFF)
T038C 000:576.500 JLINK_ReadMemEx(0x40010020, 0x4 Bytes, Flags = 0x02000004)
T038C 000:576.513   CPU_ReadMem(4 bytes @ 0x40010020)
T038C 000:576.859   failed
T038C 000:576.893 - 0.392ms returns -1 (0xFFFFFFFF)
T038C 000:576.909 JLINK_ReadMemEx(0x40010024, 0x4 Bytes, Flags = 0x02000004)
T038C 000:576.926   CPU_ReadMem(4 bytes @ 0x40010024)
T038C 000:577.289   failed
T038C 000:577.306 - 0.396ms returns -1 (0xFFFFFFFF)
T038C 000:577.315 JLINK_ReadMemEx(0x40010028, 0x4 Bytes, Flags = 0x02000004)
T038C 000:577.326   CPU_ReadMem(4 bytes @ 0x40010028)
T038C 000:577.663   failed
T038C 000:577.685 - 0.370ms returns -1 (0xFFFFFFFF)
T038C 000:577.699 JLINK_ReadMemEx(0x4001002C, 0x4 Bytes, Flags = 0x02000004)
T038C 000:577.714   CPU_ReadMem(4 bytes @ 0x4001002C)
T038C 000:578.055   failed
T038C 000:578.071 - 0.372ms returns -1 (0xFFFFFFFF)
T038C 000:578.081 JLINK_ReadMemEx(0x40010030, 0x4 Bytes, Flags = 0x02000004)
T038C 000:578.093   CPU_ReadMem(4 bytes @ 0x40010030)
T038C 000:578.430   failed
T038C 000:578.444 - 0.362ms returns -1 (0xFFFFFFFF)
T038C 000:578.454 JLINK_ReadMemEx(0x40010034, 0x4 Bytes, Flags = 0x02000004)
T038C 000:578.465   CPU_ReadMem(4 bytes @ 0x40010034)
T038C 000:578.803   failed
T038C 000:578.820 - 0.365ms returns -1 (0xFFFFFFFF)
T038C 000:578.829 JLINK_ReadMemEx(0x40010038, 0x4 Bytes, Flags = 0x02000004)
T038C 000:578.840   CPU_ReadMem(4 bytes @ 0x40010038)
T038C 000:579.178   failed
T038C 000:579.192 - 0.362ms returns -1 (0xFFFFFFFF)
T038C 000:579.202 JLINK_ReadMemEx(0x4001003C, 0x4 Bytes, Flags = 0x02000004)
T038C 000:579.212   CPU_ReadMem(4 bytes @ 0x4001003C)
T038C 000:579.538   failed
T038C 000:579.553 - 0.351ms returns -1 (0xFFFFFFFF)
T038C 000:579.562 JLINK_ReadMemEx(0x40010040, 0x4 Bytes, Flags = 0x02000004)
T038C 000:579.573   CPU_ReadMem(4 bytes @ 0x40010040)
T038C 000:579.908   failed
T038C 000:579.922 - 0.360ms returns -1 (0xFFFFFFFF)
T038C 000:579.932 JLINK_ReadMemEx(0x40010044, 0x4 Bytes, Flags = 0x02000004)
T038C 000:579.943   CPU_ReadMem(4 bytes @ 0x40010044)
T038C 000:580.275   failed
T038C 000:580.290 - 0.357ms returns -1 (0xFFFFFFFF)
T038C 000:580.299 JLINK_ReadMemEx(0x40010048, 0x4 Bytes, Flags = 0x02000004)
T038C 000:580.310   CPU_ReadMem(4 bytes @ 0x40010048)
T038C 000:580.641   failed
T038C 000:580.656 - 0.357ms returns -1 (0xFFFFFFFF)
T038C 000:580.666 JLINK_ReadMemEx(0x4001004C, 0x4 Bytes, Flags = 0x02000004)
T038C 000:580.678   CPU_ReadMem(4 bytes @ 0x4001004C)
T038C 000:581.035   failed
T038C 000:581.058 - 0.392ms returns -1 (0xFFFFFFFF)
T038C 000:581.070 JLINK_ReadMemEx(0x40010050, 0x4 Bytes, Flags = 0x02000004)
T038C 000:581.085   CPU_ReadMem(4 bytes @ 0x40010050)
T038C 000:581.425   failed
T038C 000:581.439 - 0.369ms returns -1 (0xFFFFFFFF)
T038C 000:581.449 JLINK_ReadMemEx(0x40010054, 0x4 Bytes, Flags = 0x02000004)
T038C 000:581.460   CPU_ReadMem(4 bytes @ 0x40010054)
T038C 000:581.783   failed
T038C 000:581.797 - 0.348ms returns -1 (0xFFFFFFFF)
T038C 000:581.806 JLINK_ReadMemEx(0x40010058, 0x4 Bytes, Flags = 0x02000004)
T038C 000:581.818   CPU_ReadMem(4 bytes @ 0x40010058)
T038C 000:582.145   failed
T038C 000:582.159 - 0.353ms returns -1 (0xFFFFFFFF)
T038C 000:582.169 JLINK_ReadMemEx(0x4001005C, 0x4 Bytes, Flags = 0x02000004)
T038C 000:582.179   CPU_ReadMem(4 bytes @ 0x4001005C)
T038C 000:582.508   failed
T038C 000:582.524 - 0.355ms returns -1 (0xFFFFFFFF)
T038C 000:582.534 JLINK_ReadMemEx(0x40010060, 0x4 Bytes, Flags = 0x02000004)
T038C 000:582.546   CPU_ReadMem(4 bytes @ 0x40010060)
T038C 000:582.881   failed
T038C 000:582.902 - 0.367ms returns -1 (0xFFFFFFFF)
T038C 000:582.914 JLINK_ReadMemEx(0x40010064, 0x4 Bytes, Flags = 0x02000004)
T038C 000:582.928   CPU_ReadMem(4 bytes @ 0x40010064)
T038C 000:583.264   failed
T038C 000:583.278 - 0.364ms returns -1 (0xFFFFFFFF)
T038C 000:583.288 JLINK_ReadMemEx(0x40010068, 0x4 Bytes, Flags = 0x02000004)
T038C 000:583.299   CPU_ReadMem(4 bytes @ 0x40010068)
T038C 000:583.628   failed
T038C 000:583.643 - 0.354ms returns -1 (0xFFFFFFFF)
T038C 000:583.652 JLINK_ReadMemEx(0x4001006C, 0x4 Bytes, Flags = 0x02000004)
T038C 000:583.667   CPU_ReadMem(4 bytes @ 0x4001006C)
T038C 000:584.001   failed
T038C 000:584.015 - 0.363ms returns -1 (0xFFFFFFFF)
T038C 000:584.025 JLINK_ReadMemEx(0x40010070, 0x4 Bytes, Flags = 0x02000004)
T038C 000:584.035   CPU_ReadMem(4 bytes @ 0x40010070)
T038C 000:584.365   failed
T038C 000:584.380 - 0.355ms returns -1 (0xFFFFFFFF)
T038C 000:584.390 JLINK_ReadMemEx(0x40010074, 0x4 Bytes, Flags = 0x02000004)
T038C 000:584.401   CPU_ReadMem(4 bytes @ 0x40010074)
T038C 000:584.731   failed
T038C 000:584.749 - 0.358ms returns -1 (0xFFFFFFFF)
T038C 000:584.759 JLINK_ReadMemEx(0x40010078, 0x4 Bytes, Flags = 0x02000004)
T038C 000:584.772   CPU_ReadMem(4 bytes @ 0x40010078)
T038C 000:585.107   failed
T038C 000:585.123 - 0.363ms returns -1 (0xFFFFFFFF)
T038C 000:585.132 JLINK_ReadMemEx(0x4001007C, 0x4 Bytes, Flags = 0x02000004)
T038C 000:585.143   CPU_ReadMem(4 bytes @ 0x4001007C)
T038C 000:585.477   failed
T038C 000:585.491 - 0.358ms returns -1 (0xFFFFFFFF)
T038C 000:585.500 JLINK_ReadMemEx(0x40010080, 0x4 Bytes, Flags = 0x02000004)
T038C 000:585.510   CPU_ReadMem(4 bytes @ 0x40010080)
T038C 000:585.842   failed
T038C 000:585.857 - 0.356ms returns -1 (0xFFFFFFFF)
T038C 000:585.866 JLINK_ReadMemEx(0x40010084, 0x4 Bytes, Flags = 0x02000004)
T038C 000:585.877   CPU_ReadMem(4 bytes @ 0x40010084)
T038C 000:586.210   failed
T038C 000:586.224 - 0.358ms returns -1 (0xFFFFFFFF)
T038C 000:586.234 JLINK_ReadMemEx(0x40010088, 0x4 Bytes, Flags = 0x02000004)
T038C 000:586.245   CPU_ReadMem(4 bytes @ 0x40010088)
T038C 000:586.584   failed
T038C 000:586.602 - 0.367ms returns -1 (0xFFFFFFFF)
T038C 000:586.611 JLINK_ReadMemEx(0x4001008C, 0x4 Bytes, Flags = 0x02000004)
T038C 000:586.623   CPU_ReadMem(4 bytes @ 0x4001008C)
T038C 000:587.010   failed
T038C 000:587.028 - 0.416ms returns -1 (0xFFFFFFFF)
T038C 000:587.039 JLINK_ReadMemEx(0x40010090, 0x4 Bytes, Flags = 0x02000004)
T038C 000:587.052   CPU_ReadMem(4 bytes @ 0x40010090)
T038C 000:587.383   failed
T038C 000:587.398 - 0.358ms returns -1 (0xFFFFFFFF)
T038C 000:587.407 JLINK_ReadMemEx(0x40010094, 0x4 Bytes, Flags = 0x02000004)
T038C 000:587.418   CPU_ReadMem(4 bytes @ 0x40010094)
T038C 000:587.750   failed
T038C 000:587.768 - 0.360ms returns -1 (0xFFFFFFFF)
T038C 000:587.778 JLINK_ReadMemEx(0x40010098, 0x4 Bytes, Flags = 0x02000004)
T038C 000:587.789   CPU_ReadMem(4 bytes @ 0x40010098)
T038C 000:588.123   failed
T038C 000:588.137 - 0.359ms returns -1 (0xFFFFFFFF)
T038C 000:588.147 JLINK_ReadMemEx(0x4001009C, 0x4 Bytes, Flags = 0x02000004)
T038C 000:588.158   CPU_ReadMem(4 bytes @ 0x4001009C)
T038C 000:588.484   failed
T038C 000:588.497 - 0.350ms returns -1 (0xFFFFFFFF)
T038C 000:588.507 JLINK_ReadMemEx(0x400100A0, 0x4 Bytes, Flags = 0x02000004)
T038C 000:588.517   CPU_ReadMem(4 bytes @ 0x400100A0)
T038C 000:588.853   failed
T038C 000:588.876 - 0.369ms returns -1 (0xFFFFFFFF)
T038C 000:588.892 JLINK_ReadMemEx(0x400100A4, 0x4 Bytes, Flags = 0x02000004)
T038C 000:588.907   CPU_ReadMem(4 bytes @ 0x400100A4)
T038C 000:589.287   failed
T038C 000:589.304 - 0.411ms returns -1 (0xFFFFFFFF)
T038C 000:589.314 JLINK_ReadMemEx(0x400100A8, 0x4 Bytes, Flags = 0x02000004)
T038C 000:589.327   CPU_ReadMem(4 bytes @ 0x400100A8)
T038C 000:589.658   failed
T038C 000:589.672 - 0.358ms returns -1 (0xFFFFFFFF)
T038C 000:589.682 JLINK_ReadMemEx(0x400100AC, 0x4 Bytes, Flags = 0x02000004)
T038C 000:589.694   CPU_ReadMem(4 bytes @ 0x400100AC)
T038C 000:590.026   failed
T038C 000:590.040 - 0.358ms returns -1 (0xFFFFFFFF)
T038C 000:590.049 JLINK_ReadMemEx(0x400100B0, 0x4 Bytes, Flags = 0x02000004)
T038C 000:590.060   CPU_ReadMem(4 bytes @ 0x400100B0)
T038C 000:590.389   failed
T038C 000:590.403 - 0.353ms returns -1 (0xFFFFFFFF)
T038C 000:590.412 JLINK_ReadMemEx(0x400100B4, 0x4 Bytes, Flags = 0x02000004)
T038C 000:590.423   CPU_ReadMem(4 bytes @ 0x400100B4)
T038C 000:590.752   failed
T038C 000:590.766 - 0.353ms returns -1 (0xFFFFFFFF)
T038C 000:590.775 JLINK_ReadMemEx(0x400100B8, 0x4 Bytes, Flags = 0x02000004)
T038C 000:590.791   CPU_ReadMem(4 bytes @ 0x400100B8)
T038C 000:591.159   failed
T038C 000:591.174 - 0.398ms returns -1 (0xFFFFFFFF)
T038C 000:591.184 JLINK_ReadMemEx(0x400100BC, 0x4 Bytes, Flags = 0x02000004)
T038C 000:591.196   CPU_ReadMem(4 bytes @ 0x400100BC)
T038C 000:591.527   failed
T038C 000:591.542 - 0.358ms returns -1 (0xFFFFFFFF)
T038C 000:591.552 JLINK_ReadMemEx(0x400100C0, 0x4 Bytes, Flags = 0x02000004)
T038C 000:591.563   CPU_ReadMem(4 bytes @ 0x400100C0)
T038C 000:591.894   failed
T038C 000:591.912 - 0.359ms returns -1 (0xFFFFFFFF)
T038C 000:591.921 JLINK_ReadMemEx(0x400100C4, 0x4 Bytes, Flags = 0x02000004)
T038C 000:591.932   CPU_ReadMem(4 bytes @ 0x400100C4)
T038C 000:592.260   failed
T038C 000:592.274 - 0.352ms returns -1 (0xFFFFFFFF)
T038C 000:592.284 JLINK_ReadMemEx(0x400100C8, 0x4 Bytes, Flags = 0x02000004)
T038C 000:592.295   CPU_ReadMem(4 bytes @ 0x400100C8)
T038C 000:592.619   failed
T038C 000:592.633 - 0.349ms returns -1 (0xFFFFFFFF)
T038C 000:592.642 JLINK_ReadMemEx(0x400100C8, 0x4 Bytes, Flags = 0x02000004)
T038C 000:592.653   CPU_ReadMem(4 bytes @ 0x400100C8)
T038C 000:593.062   failed
T038C 000:593.077 - 0.434ms returns -1 (0xFFFFFFFF)
T038C 000:593.087 JLINK_ReadMemEx(0x400100D0, 0x14 Bytes, Flags = 0x02000004)
T038C 000:593.098   CPU_ReadMem(20 bytes @ 0x400100D0)
T038C 000:593.439   failed
T038C 000:593.453 - 0.366ms returns -1 (0xFFFFFFFF)
T038C 000:593.463 JLINK_ReadMemEx(0x400100D0, 0x4 Bytes, Flags = 0x02000004)
T038C 000:593.473   CPU_ReadMem(4 bytes @ 0x400100D0)
T038C 000:593.803   failed
T038C 000:593.817 - 0.354ms returns -1 (0xFFFFFFFF)
T038C 000:593.826 JLINK_ReadMemEx(0x400100D4, 0x4 Bytes, Flags = 0x02000004)
T038C 000:593.837   CPU_ReadMem(4 bytes @ 0x400100D4)
T038C 000:594.162   failed
T038C 000:594.176 - 0.349ms returns -1 (0xFFFFFFFF)
T038C 000:594.237 JLINK_ReadMemEx(0x400100D8, 0x4 Bytes, Flags = 0x02000004)
T038C 000:594.253   CPU_ReadMem(4 bytes @ 0x400100D8)
T038C 000:594.585   failed
T038C 000:594.601 - 0.363ms returns -1 (0xFFFFFFFF)
T038C 000:594.612 JLINK_ReadMemEx(0x400100DC, 0x4 Bytes, Flags = 0x02000004)
T038C 000:594.622   CPU_ReadMem(4 bytes @ 0x400100DC)
T038C 000:594.983   failed
T038C 000:594.998 - 0.386ms returns -1 (0xFFFFFFFF)
T038C 000:595.007 JLINK_ReadMemEx(0x400100E0, 0x4 Bytes, Flags = 0x02000004)
T038C 000:595.018   CPU_ReadMem(4 bytes @ 0x400100E0)
T038C 000:595.349   failed
T038C 000:595.363 - 0.356ms returns -1 (0xFFFFFFFF)
T038C 000:595.373 JLINK_ReadMemEx(0x400100E4, 0x4 Bytes, Flags = 0x02000004)
T038C 000:595.384   CPU_ReadMem(4 bytes @ 0x400100E4)
T038C 000:595.711   failed
T038C 000:595.725 - 0.351ms returns -1 (0xFFFFFFFF)
T038C 000:595.734 JLINK_ReadMemEx(0x400100E4, 0x4 Bytes, Flags = 0x02000004)
T038C 000:595.745   CPU_ReadMem(4 bytes @ 0x400100E4)
T038C 000:596.083   failed
T038C 000:596.097 - 0.362ms returns -1 (0xFFFFFFFF)
T038C 000:596.107 JLINK_ReadMemEx(0x400100FC, 0x4 Bytes, Flags = 0x02000004)
T038C 000:596.117   CPU_ReadMem(4 bytes @ 0x400100FC)
T038C 000:596.458   failed
T038C 000:596.472 - 0.364ms returns -1 (0xFFFFFFFF)
T038C 000:596.481 JLINK_ReadMemEx(0x400100FC, 0x4 Bytes, Flags = 0x02000004)
T038C 000:596.491   CPU_ReadMem(4 bytes @ 0x400100FC)
T038C 000:596.839   failed
T038C 000:596.853 - 0.372ms returns -1 (0xFFFFFFFF)
T038C 001:989.523 JLINK_ReadMemEx(0x00100162, 0x2 Bytes, Flags = 0x02000000)
T038C 001:989.557    -- Read from flash cache (2 bytes @ 0x00100162)
T038C 001:989.567   Data:  10 00
T038C 001:989.577 - 0.054ms returns 2 (0x2)
T038C 001:989.585 JLINK_ReadMemEx(0x00100164, 0x3C Bytes, Flags = 0x02000000)
T038C 001:989.591    -- Read from flash cache (60 bytes @ 0x00100164)
T038C 001:989.600   Data:  68 46 6F F3 82 00 85 46 06 48 80 47 06 48 00 47 ...
T038C 001:989.609 - 0.024ms returns 60 (0x3C)
T038C 001:989.616 JLINK_ReadMemEx(0x00100164, 0x2 Bytes, Flags = 0x02000000)
T038C 001:989.623    -- Read from flash cache (2 bytes @ 0x00100164)
T038C 001:989.631   Data:  68 46
T038C 001:989.640 - 0.024ms returns 2 (0x2)
T038C 001:989.717 JLINK_ReadMemEx(0x00100164, 0x3C Bytes, Flags = 0x02000000)
T038C 001:989.727    -- Read from flash cache (60 bytes @ 0x00100164)
T038C 001:989.737   Data:  68 46 6F F3 82 00 85 46 06 48 80 47 06 48 00 47 ...
T038C 001:989.745 - 0.028ms returns 60 (0x3C)
T038C 001:989.752 JLINK_ReadMemEx(0x00100164, 0x2 Bytes, Flags = 0x02000000)
T038C 001:989.759    -- Read from flash cache (2 bytes @ 0x00100164)
T038C 001:989.767   Data:  68 46
T038C 001:989.776 - 0.024ms returns 2 (0x2)
T038C 001:989.783 JLINK_ReadMemEx(0x00100166, 0x2 Bytes, Flags = 0x02000000)
T038C 001:989.790    -- Read from flash cache (2 bytes @ 0x00100166)
T038C 001:989.798   Data:  6F F3
T038C 001:989.807 - 0.024ms returns 2 (0x2)
T038C 001:989.818 JLINK_ReadMemEx(0x00100166, 0x2 Bytes, Flags = 0x02000000)
T038C 001:989.825    -- Read from flash cache (2 bytes @ 0x00100166)
T038C 001:989.833   Data:  6F F3
T038C 001:989.842 - 0.024ms returns 2 (0x2)
T038C 001:989.849 JLINK_ReadMemEx(0x00100168, 0x3C Bytes, Flags = 0x02000000)
T038C 001:989.855    -- Read from flash cache (60 bytes @ 0x00100168)
T038C 001:989.865   Data:  82 00 85 46 06 48 80 47 06 48 00 47 FE E7 FE E7 ...
T038C 001:989.873 - 0.024ms returns 60 (0x3C)
T038C 001:989.880 JLINK_ReadMemEx(0x00100168, 0x2 Bytes, Flags = 0x02000000)
T038C 001:989.887    -- Read from flash cache (2 bytes @ 0x00100168)
T038C 001:989.895   Data:  82 00
T038C 001:989.904 - 0.023ms returns 2 (0x2)
T038C 001:989.914 JLINK_ReadMemEx(0x0010016A, 0x2 Bytes, Flags = 0x02000000)
T038C 001:989.920    -- Read from flash cache (2 bytes @ 0x0010016A)
T038C 001:989.929   Data:  85 46
T038C 001:989.938 - 0.024ms returns 2 (0x2)
T038C 001:989.945 JLINK_ReadMemEx(0x0010016C, 0x3C Bytes, Flags = 0x02000000)
T038C 001:989.951    -- Read from flash cache (60 bytes @ 0x0010016C)
T038C 001:989.960   Data:  06 48 80 47 06 48 00 47 FE E7 FE E7 FE E7 FE E7 ...
T038C 001:989.969 - 0.024ms returns 60 (0x3C)
T038C 001:989.976 JLINK_ReadMemEx(0x0010016C, 0x2 Bytes, Flags = 0x02000000)
T038C 001:989.982    -- Read from flash cache (2 bytes @ 0x0010016C)
T038C 001:989.992   Data:  06 48
T038C 001:990.024 - 0.047ms returns 2 (0x2)
T038C 002:253.954 JLINK_HasError()
T038C 002:253.975 JLINK_ReadReg(R0)
T038C 002:254.276 - 0.300ms returns 0x00100165
T038C 002:254.291 JLINK_ReadReg(R1)
T038C 002:254.298 - 0.007ms returns 0x00000007
T038C 002:254.305 JLINK_ReadReg(R2)
T038C 002:254.312 - 0.006ms returns 0x20006000
T038C 002:254.318 JLINK_ReadReg(R3)
T038C 002:254.325 - 0.006ms returns 0xE000ED00
T038C 002:254.332 JLINK_ReadReg(R4)
T038C 002:254.339 - 0.006ms returns 0x00100000
T038C 002:254.345 JLINK_ReadReg(R5)
T038C 002:254.352 - 0.006ms returns 0x00000007
T038C 002:254.359 JLINK_ReadReg(R6)
T038C 002:254.365 - 0.006ms returns 0xFFFFFFFF
T038C 002:254.372 JLINK_ReadReg(R7)
T038C 002:254.378 - 0.006ms returns 0x40000E2C
T038C 002:254.385 JLINK_ReadReg(R8)
T038C 002:254.391 - 0.006ms returns 0x4200A700
T038C 002:254.398 JLINK_ReadReg(R9)
T038C 002:254.405 - 0.006ms returns 0x00081A00
T038C 002:254.411 JLINK_ReadReg(R10)
T038C 002:254.418 - 0.006ms returns 0xDFCC84F3
T038C 002:254.425 JLINK_ReadReg(R11)
T038C 002:254.431 - 0.006ms returns 0x59CCCE60
T038C 002:254.438 JLINK_ReadReg(R12)
T038C 002:254.444 - 0.006ms returns 0x00000001
T038C 002:254.451 JLINK_ReadReg(R13 (SP))
T038C 002:254.458 - 0.006ms returns 0x20005FFC
T038C 002:254.464 JLINK_ReadReg(R14)
T038C 002:254.471 - 0.006ms returns 0x000002E5
T038C 002:254.478 JLINK_ReadReg(R15 (PC))
T038C 002:254.485 - 0.007ms returns 0x00100164
T038C 002:254.491 JLINK_ReadReg(XPSR)
T038C 002:254.498 - 0.006ms returns 0x61000000
T038C 002:254.504 JLINK_ReadReg(MSP)
T038C 002:254.511 - 0.006ms returns 0x20005FFC
T038C 002:254.517 JLINK_ReadReg(PSP)
T038C 002:254.524 - 0.006ms returns 0xBEA48604
T038C 002:254.531 JLINK_ReadReg(CFBP)
T038C 002:254.537 - 0.006ms returns 0x00000001
T28BC 002:287.896 JLINK_ReadMemEx(0x00100164, 0x2 Bytes, Flags = 0x02000000)
T28BC 002:287.928    -- Read from flash cache (2 bytes @ 0x00100164)
T28BC 002:287.945   Data:  68 46
T28BC 002:287.955 - 0.059ms returns 2 (0x2)
T28BC 002:287.963 JLINK_HasError()
T28BC 002:287.973 JLINK_SetBPEx(Addr = 0x00100718, Type = 0xFFFFFFF2)
T28BC 002:287.992 - 0.019ms returns 0x00000001
T28BC 002:287.999 JLINK_HasError()
T28BC 002:288.006 JLINK_SetBPEx(Addr = 0x00100744, Type = 0xFFFFFFF2)
T28BC 002:288.013 - 0.007ms returns 0x00000002
T28BC 002:288.020 JLINK_HasError()
T28BC 002:288.027 JLINK_HasError()
T28BC 002:288.034 JLINK_Go()
T28BC 002:288.053   CPU_WriteMem(4 bytes @ 0xE0002000)
T28BC 002:288.409   CPU_WriteMem(4 bytes @ 0xE0002000)
T28BC 002:288.773   CPU_ReadMem(4 bytes @ 0xE0001000)
T28BC 002:289.057   CPU_WriteMem(4 bytes @ 0xE0002008)
T28BC 002:289.077   CPU_WriteMem(4 bytes @ 0xE000200C)
T28BC 002:289.569   CPU_WriteMem(4 bytes @ 0xE0001004)
T28BC 002:317.463   Memory map 'after startup completion point' is active
T28BC 002:317.497 - 29.462ms
T28BC 002:417.589 JLINK_HasError()
T28BC 002:417.647 JLINK_IsHalted()
T28BC 002:420.429 - 2.780ms returns TRUE
T28BC 002:420.453 JLINK_HasError()
T28BC 002:420.461 JLINK_Halt()
T28BC 002:420.468 - 0.006ms returns 0x00
T28BC 002:420.476 JLINK_IsHalted()
T28BC 002:420.482 - 0.006ms returns TRUE
T28BC 002:420.490 JLINK_IsHalted()
T28BC 002:420.496 - 0.006ms returns TRUE
T28BC 002:420.504 JLINK_IsHalted()
T28BC 002:420.510 - 0.006ms returns TRUE
T28BC 002:420.519 JLINK_HasError()
T28BC 002:420.578 JLINK_ReadReg(R15 (PC))
T28BC 002:420.595 - 0.017ms returns 0x00100718
T28BC 002:420.603 JLINK_ReadReg(XPSR)
T28BC 002:420.610 - 0.006ms returns 0x61000000
T28BC 002:420.620 JLINK_HasError()
T28BC 002:420.656 JLINK_ClrBPEx(BPHandle = 0x00000001)
T28BC 002:420.663 - 0.007ms returns 0x00
T28BC 002:420.670 JLINK_HasError()
T28BC 002:420.677 JLINK_ClrBPEx(BPHandle = 0x00000002)
T28BC 002:420.684 - 0.006ms returns 0x00
T28BC 002:420.691 JLINK_HasError()
T28BC 002:420.698 JLINK_HasError()
T28BC 002:420.706 JLINK_ReadMemU32(0xE000ED30, 0x1 Items)
T28BC 002:420.718   CPU_ReadMem(4 bytes @ 0xE000ED30)
T28BC 002:421.054   Data:  02 00 00 00
T28BC 002:421.071 - 0.365ms returns 1 (0x1)
T28BC 002:421.080 JLINK_ReadMemU32(0xE0001028, 0x1 Items)
T28BC 002:421.091   CPU_ReadMem(4 bytes @ 0xE0001028)
T28BC 002:421.385   Data:  00 00 00 00
T28BC 002:421.400   Debug reg: DWT_FUNC[0]
T28BC 002:421.409 - 0.329ms returns 1 (0x1)
T28BC 002:421.449 JLINK_HasError()
T28BC 002:421.457 JLINK_ReadReg(R0)
T28BC 002:421.466 - 0.008ms returns 0x00100719
T28BC 002:421.473 JLINK_ReadReg(R1)
T28BC 002:421.480 - 0.006ms returns 0x02DC6C01
T28BC 002:421.487 JLINK_ReadReg(R2)
T28BC 002:421.493 - 0.006ms returns 0x20006000
T28BC 002:421.500 JLINK_ReadReg(R3)
T28BC 002:421.507 - 0.006ms returns 0xE000ED00
T28BC 002:421.513 JLINK_ReadReg(R4)
T28BC 002:421.520 - 0.006ms returns 0x00100750
T28BC 002:421.527 JLINK_ReadReg(R5)
T28BC 002:421.533 - 0.006ms returns 0x00100750
T28BC 002:421.540 JLINK_ReadReg(R6)
T28BC 002:421.550 - 0.009ms returns 0xFFFFFFFF
T28BC 002:421.557 JLINK_ReadReg(R7)
T28BC 002:421.563 - 0.006ms returns 0x40000E2C
T28BC 002:421.570 JLINK_ReadReg(R8)
T28BC 002:421.577 - 0.006ms returns 0x4200A700
T28BC 002:421.583 JLINK_ReadReg(R9)
T28BC 002:421.590 - 0.006ms returns 0x00081A00
T28BC 002:421.596 JLINK_ReadReg(R10)
T28BC 002:421.603 - 0.006ms returns 0xDFCC84F3
T28BC 002:421.610 JLINK_ReadReg(R11)
T28BC 002:421.616 - 0.006ms returns 0x59CCCE60
T28BC 002:421.623 JLINK_ReadReg(R12)
T28BC 002:421.630 - 0.006ms returns 0x00000001
T28BC 002:421.637 JLINK_ReadReg(R13 (SP))
T28BC 002:421.644 - 0.007ms returns 0x20006000
T28BC 002:421.651 JLINK_ReadReg(R14)
T28BC 002:421.657 - 0.006ms returns 0x001001C1
T28BC 002:421.664 JLINK_ReadReg(R15 (PC))
T28BC 002:421.671 - 0.006ms returns 0x00100718
T28BC 002:421.678 JLINK_ReadReg(XPSR)
T28BC 002:421.684 - 0.006ms returns 0x61000000
T28BC 002:421.691 JLINK_ReadReg(MSP)
T28BC 002:421.697 - 0.006ms returns 0x20006000
T28BC 002:421.704 JLINK_ReadReg(PSP)
T28BC 002:421.711 - 0.006ms returns 0xBEA48604
T28BC 002:421.718 JLINK_ReadReg(CFBP)
T28BC 002:421.729 - 0.010ms returns 0x00000001
T038C 002:422.057 JLINK_ReadMemEx(0x20006008, 0x4 Bytes, Flags = 0x02000000)
T038C 002:422.075   CPU_ReadMem(4 bytes @ 0x20006008)
T038C 002:422.393   Data:  31 A6 BA 05
T038C 002:422.408 - 0.351ms returns 4 (0x4)
T038C 002:426.529 JLINK_ReadMemEx(0x20006008, 0x4 Bytes, Flags = 0x02000000)
T038C 002:426.573   CPU_ReadMem(4 bytes @ 0x20006008)
T038C 002:426.871   Data:  31 A6 BA 05
T038C 002:426.887 - 0.359ms returns 4 (0x4)
T038C 002:426.914 JLINK_HasError()
T038C 002:426.922 JLINK_ReadMemU32(0xE0001004, 0x1 Items)
T038C 002:426.934   CPU_ReadMem(4 bytes @ 0xE0001004)
T038C 002:427.202   Data:  00 00 00 00
T038C 002:427.216   Debug reg: DWT_CYCCNT
T038C 002:427.225 - 0.302ms returns 1 (0x1)
T038C 002:427.374 JLINK_ReadMemEx(0x40010000, 0xC8 Bytes, Flags = 0x02000004)
T038C 002:427.386   CPU_ReadMem(200 bytes @ 0x40010000)
T038C 002:428.045   failed
T038C 002:428.059 - 0.685ms returns -1 (0xFFFFFFFF)
T038C 002:428.068 JLINK_ReadMemEx(0x40010000, 0x4 Bytes, Flags = 0x02000004)
T038C 002:428.079   CPU_ReadMem(4 bytes @ 0x40010000)
T038C 002:428.412   failed
T038C 002:428.426 - 0.357ms returns -1 (0xFFFFFFFF)
T038C 002:428.435 JLINK_ReadMemEx(0x40010004, 0x4 Bytes, Flags = 0x02000004)
T038C 002:428.446   CPU_ReadMem(4 bytes @ 0x40010004)
T038C 002:428.783   failed
T038C 002:428.798 - 0.362ms returns -1 (0xFFFFFFFF)
T038C 002:428.807 JLINK_ReadMemEx(0x40010008, 0x4 Bytes, Flags = 0x02000004)
T038C 002:428.818   CPU_ReadMem(4 bytes @ 0x40010008)
T038C 002:429.200   failed
T038C 002:429.215 - 0.407ms returns -1 (0xFFFFFFFF)
T038C 002:429.225 JLINK_ReadMemEx(0x4001000C, 0x4 Bytes, Flags = 0x02000004)
T038C 002:429.236   CPU_ReadMem(4 bytes @ 0x4001000C)
T038C 002:429.589   failed
T038C 002:429.603 - 0.378ms returns -1 (0xFFFFFFFF)
T038C 002:429.613 JLINK_ReadMemEx(0x40010010, 0x4 Bytes, Flags = 0x02000004)
T038C 002:429.623   CPU_ReadMem(4 bytes @ 0x40010010)
T038C 002:429.978   failed
T038C 002:429.992 - 0.379ms returns -1 (0xFFFFFFFF)
T038C 002:430.001 JLINK_ReadMemEx(0x40010014, 0x4 Bytes, Flags = 0x02000004)
T038C 002:430.012   CPU_ReadMem(4 bytes @ 0x40010014)
T038C 002:430.364   failed
T038C 002:430.379 - 0.377ms returns -1 (0xFFFFFFFF)
T038C 002:430.388 JLINK_ReadMemEx(0x40010018, 0x4 Bytes, Flags = 0x02000004)
T038C 002:430.399   CPU_ReadMem(4 bytes @ 0x40010018)
T038C 002:430.729   failed
T038C 002:430.744 - 0.355ms returns -1 (0xFFFFFFFF)
T038C 002:430.753 JLINK_ReadMemEx(0x4001001C, 0x4 Bytes, Flags = 0x02000004)
T038C 002:430.764   CPU_ReadMem(4 bytes @ 0x4001001C)
T038C 002:431.096   failed
T038C 002:431.110 - 0.357ms returns -1 (0xFFFFFFFF)
T038C 002:431.119 JLINK_ReadMemEx(0x40010020, 0x4 Bytes, Flags = 0x02000004)
T038C 002:431.130   CPU_ReadMem(4 bytes @ 0x40010020)
T038C 002:431.459   failed
T038C 002:431.473 - 0.353ms returns -1 (0xFFFFFFFF)
T038C 002:431.482 JLINK_ReadMemEx(0x40010024, 0x4 Bytes, Flags = 0x02000004)
T038C 002:431.493   CPU_ReadMem(4 bytes @ 0x40010024)
T038C 002:431.834   failed
T038C 002:431.848 - 0.365ms returns -1 (0xFFFFFFFF)
T038C 002:431.857 JLINK_ReadMemEx(0x40010028, 0x4 Bytes, Flags = 0x02000004)
T038C 002:431.868   CPU_ReadMem(4 bytes @ 0x40010028)
T038C 002:432.211   failed
T038C 002:432.225 - 0.368ms returns -1 (0xFFFFFFFF)
T038C 002:432.234 JLINK_ReadMemEx(0x4001002C, 0x4 Bytes, Flags = 0x02000004)
T038C 002:432.245   CPU_ReadMem(4 bytes @ 0x4001002C)
T038C 002:432.585   failed
T038C 002:432.599 - 0.364ms returns -1 (0xFFFFFFFF)
T038C 002:432.608 JLINK_ReadMemEx(0x40010030, 0x4 Bytes, Flags = 0x02000004)
T038C 002:432.619   CPU_ReadMem(4 bytes @ 0x40010030)
T038C 002:433.031   failed
T038C 002:433.047 - 0.438ms returns -1 (0xFFFFFFFF)
T038C 002:433.056 JLINK_ReadMemEx(0x40010034, 0x4 Bytes, Flags = 0x02000004)
T038C 002:433.067   CPU_ReadMem(4 bytes @ 0x40010034)
T038C 002:433.399   failed
T038C 002:433.413 - 0.356ms returns -1 (0xFFFFFFFF)
T038C 002:433.422 JLINK_ReadMemEx(0x40010038, 0x4 Bytes, Flags = 0x02000004)
T038C 002:433.433   CPU_ReadMem(4 bytes @ 0x40010038)
T038C 002:433.767   failed
T038C 002:433.781 - 0.358ms returns -1 (0xFFFFFFFF)
T038C 002:433.790 JLINK_ReadMemEx(0x4001003C, 0x4 Bytes, Flags = 0x02000004)
T038C 002:433.801   CPU_ReadMem(4 bytes @ 0x4001003C)
T038C 002:434.134   failed
T038C 002:434.147 - 0.357ms returns -1 (0xFFFFFFFF)
T038C 002:434.157 JLINK_ReadMemEx(0x40010040, 0x4 Bytes, Flags = 0x02000004)
T038C 002:434.167   CPU_ReadMem(4 bytes @ 0x40010040)
T038C 002:434.497   failed
T038C 002:434.511 - 0.354ms returns -1 (0xFFFFFFFF)
T038C 002:434.520 JLINK_ReadMemEx(0x40010044, 0x4 Bytes, Flags = 0x02000004)
T038C 002:434.531   CPU_ReadMem(4 bytes @ 0x40010044)
T038C 002:434.859   failed
T038C 002:434.873 - 0.352ms returns -1 (0xFFFFFFFF)
T038C 002:434.882 JLINK_ReadMemEx(0x40010048, 0x4 Bytes, Flags = 0x02000004)
T038C 002:434.893   CPU_ReadMem(4 bytes @ 0x40010048)
T038C 002:435.224   failed
T038C 002:435.238 - 0.356ms returns -1 (0xFFFFFFFF)
T038C 002:435.248 JLINK_ReadMemEx(0x4001004C, 0x4 Bytes, Flags = 0x02000004)
T038C 002:435.258   CPU_ReadMem(4 bytes @ 0x4001004C)
T038C 002:435.588   failed
T038C 002:435.602 - 0.354ms returns -1 (0xFFFFFFFF)
T038C 002:435.611 JLINK_ReadMemEx(0x40010050, 0x4 Bytes, Flags = 0x02000004)
T038C 002:435.622   CPU_ReadMem(4 bytes @ 0x40010050)
T038C 002:435.958   failed
T038C 002:435.972 - 0.361ms returns -1 (0xFFFFFFFF)
T038C 002:435.982 JLINK_ReadMemEx(0x40010054, 0x4 Bytes, Flags = 0x02000004)
T038C 002:435.992   CPU_ReadMem(4 bytes @ 0x40010054)
T038C 002:436.333   failed
T038C 002:436.347 - 0.364ms returns -1 (0xFFFFFFFF)
T038C 002:436.356 JLINK_ReadMemEx(0x40010058, 0x4 Bytes, Flags = 0x02000004)
T038C 002:436.366   CPU_ReadMem(4 bytes @ 0x40010058)
T038C 002:436.700   failed
T038C 002:436.715 - 0.359ms returns -1 (0xFFFFFFFF)
T038C 002:436.724 JLINK_ReadMemEx(0x4001005C, 0x4 Bytes, Flags = 0x02000004)
T038C 002:436.735   CPU_ReadMem(4 bytes @ 0x4001005C)
T038C 002:437.113   failed
T038C 002:437.126 - 0.402ms returns -1 (0xFFFFFFFF)
T038C 002:437.136 JLINK_ReadMemEx(0x40010060, 0x4 Bytes, Flags = 0x02000004)
T038C 002:437.146   CPU_ReadMem(4 bytes @ 0x40010060)
T038C 002:437.476   failed
T038C 002:437.490 - 0.353ms returns -1 (0xFFFFFFFF)
T038C 002:437.499 JLINK_ReadMemEx(0x40010064, 0x4 Bytes, Flags = 0x02000004)
T038C 002:437.510   CPU_ReadMem(4 bytes @ 0x40010064)
T038C 002:437.840   failed
T038C 002:437.854 - 0.355ms returns -1 (0xFFFFFFFF)
T038C 002:437.863 JLINK_ReadMemEx(0x40010068, 0x4 Bytes, Flags = 0x02000004)
T038C 002:437.874   CPU_ReadMem(4 bytes @ 0x40010068)
T038C 002:438.209   failed
T038C 002:438.223 - 0.359ms returns -1 (0xFFFFFFFF)
T038C 002:438.232 JLINK_ReadMemEx(0x4001006C, 0x4 Bytes, Flags = 0x02000004)
T038C 002:438.243   CPU_ReadMem(4 bytes @ 0x4001006C)
T038C 002:438.584   failed
T038C 002:438.598 - 0.365ms returns -1 (0xFFFFFFFF)
T038C 002:438.607 JLINK_ReadMemEx(0x40010070, 0x4 Bytes, Flags = 0x02000004)
T038C 002:438.618   CPU_ReadMem(4 bytes @ 0x40010070)
T038C 002:438.958   failed
T038C 002:438.972 - 0.365ms returns -1 (0xFFFFFFFF)
T038C 002:438.982 JLINK_ReadMemEx(0x40010074, 0x4 Bytes, Flags = 0x02000004)
T038C 002:438.992   CPU_ReadMem(4 bytes @ 0x40010074)
T038C 002:439.354   failed
T038C 002:439.392 - 0.410ms returns -1 (0xFFFFFFFF)
T038C 002:439.417 JLINK_ReadMemEx(0x40010078, 0x4 Bytes, Flags = 0x02000004)
T038C 002:439.447   CPU_ReadMem(4 bytes @ 0x40010078)
T038C 002:439.855   failed
T038C 002:439.893 - 0.475ms returns -1 (0xFFFFFFFF)
T038C 002:439.918 JLINK_ReadMemEx(0x4001007C, 0x4 Bytes, Flags = 0x02000004)
T038C 002:439.991   CPU_ReadMem(4 bytes @ 0x4001007C)
T038C 002:440.382   failed
T038C 002:440.396 - 0.477ms returns -1 (0xFFFFFFFF)
T038C 002:440.405 JLINK_ReadMemEx(0x40010080, 0x4 Bytes, Flags = 0x02000004)
T038C 002:440.416   CPU_ReadMem(4 bytes @ 0x40010080)
T038C 002:440.746   failed
T038C 002:440.761 - 0.355ms returns -1 (0xFFFFFFFF)
T038C 002:440.770 JLINK_ReadMemEx(0x40010084, 0x4 Bytes, Flags = 0x02000004)
T038C 002:440.781   CPU_ReadMem(4 bytes @ 0x40010084)
T038C 002:441.114   failed
T038C 002:441.134 - 0.363ms returns -1 (0xFFFFFFFF)
T038C 002:441.144 JLINK_ReadMemEx(0x40010088, 0x4 Bytes, Flags = 0x02000004)
T038C 002:441.157   CPU_ReadMem(4 bytes @ 0x40010088)
T038C 002:441.532   failed
T038C 002:441.551 - 0.406ms returns -1 (0xFFFFFFFF)
T038C 002:441.561 JLINK_ReadMemEx(0x4001008C, 0x4 Bytes, Flags = 0x02000004)
T038C 002:441.573   CPU_ReadMem(4 bytes @ 0x4001008C)
T038C 002:441.961   failed
T038C 002:441.976 - 0.414ms returns -1 (0xFFFFFFFF)
T038C 002:441.985 JLINK_ReadMemEx(0x40010090, 0x4 Bytes, Flags = 0x02000004)
T038C 002:441.996   CPU_ReadMem(4 bytes @ 0x40010090)
T038C 002:442.334   failed
T038C 002:442.351 - 0.366ms returns -1 (0xFFFFFFFF)
T038C 002:442.361 JLINK_ReadMemEx(0x40010094, 0x4 Bytes, Flags = 0x02000004)
T038C 002:442.373   CPU_ReadMem(4 bytes @ 0x40010094)
T038C 002:442.703   failed
T038C 002:442.718 - 0.356ms returns -1 (0xFFFFFFFF)
T038C 002:442.727 JLINK_ReadMemEx(0x40010098, 0x4 Bytes, Flags = 0x02000004)
T038C 002:442.738   CPU_ReadMem(4 bytes @ 0x40010098)
T038C 002:443.087   failed
T038C 002:443.101 - 0.373ms returns -1 (0xFFFFFFFF)
T038C 002:443.110 JLINK_ReadMemEx(0x4001009C, 0x4 Bytes, Flags = 0x02000004)
T038C 002:443.121   CPU_ReadMem(4 bytes @ 0x4001009C)
T038C 002:443.458   failed
T038C 002:443.472 - 0.362ms returns -1 (0xFFFFFFFF)
T038C 002:443.482 JLINK_ReadMemEx(0x400100A0, 0x4 Bytes, Flags = 0x02000004)
T038C 002:443.492   CPU_ReadMem(4 bytes @ 0x400100A0)
T038C 002:443.833   failed
T038C 002:443.847 - 0.365ms returns -1 (0xFFFFFFFF)
T038C 002:443.856 JLINK_ReadMemEx(0x400100A4, 0x4 Bytes, Flags = 0x02000004)
T038C 002:443.867   CPU_ReadMem(4 bytes @ 0x400100A4)
T038C 002:444.208   failed
T038C 002:444.222 - 0.365ms returns -1 (0xFFFFFFFF)
