! AWR Design Environment (12506) Thu Nov 23 11:39:37 2023
! Document = 'Antenna'
! nPorts: 1, nXvals: 21

# MHz S DB R 50
!Freq DBS11 AngS11 
2300 -1.2999583 172.56611 
2310 -1.4083411 168.462 
2320 -1.5300454 164.02479 
2330 -1.6666588 159.21235 
2340 -1.8197648 153.97707 
2350 -1.9907942 148.26566 
2360 -2.1807813 142.01932 
2370 -2.389985 135.17475 
2380 -2.6173387 127.66627 
2390 -2.8597094 119.43015 
2400 -3.1110107 110.41186 
2410 -3.3613422 100.57744 
2420 -3.5965384 89.929221 
2430 -3.7987214 78.524397 
2440 -3.9484646 66.491075 
2450 -4.0286531 54.033094 
2460 -4.0290254 41.414862 
2470 -3.9493789 28.925336 
2480 -3.7996657 16.832468 
2490 -3.5969168 5.345963 
2500 -3.3606984 -5.399553 
