! AWR Design Environment (12506) Sat Nov 18 16:21:52 2023
! Document = 'Antenna'
! nPorts: 1, nXvals: 21

# MHz S DB R 50
!Freq DBS11 AngS11 
2300 -1.2851384 172.71142 
2310 -1.39304 168.59584 
2320 -1.5141272 164.15158 
2330 -1.6499824 159.33637 
2340 -1.8021933 154.10236 
2350 -1.9722088 148.39591 
2360 -2.1611008 142.15771 
2370 -2.369192 135.32368 
2380 -2.5955114 127.82718 
2390 -2.8370551 119.60316 
2400 -3.087893 110.59545 
2410 -3.338287 100.76813 
2420 -3.5742014 90.121465 
2430 -3.777803 78.710723 
2440 -3.9295819 66.662903 
2450 -4.012213 54.182191 
2460 -4.0151654 41.535243 
2470 -3.9380173 29.014952 
2480 -3.7906354 16.894022 
2490 -3.5901033 5.3865988 
2500 -3.3561158 -5.369368 
